Circuit: * Z:\home\spock\HiG\EE413A-mätteknik\lab\lab-01\1_Ic-Uce-characteristics_nolabels.asc

R2: both pins shorted together -- ignoring.
Direct Newton iteration for .op point succeeded.
Semiconductor Device Operating Points:
                        --- Bipolar Transistors ---
Name:       q1
Model:    bc546b
Ib:      -5.07e-12
Ic:       5.09e-12
Vbe:      5.07e-06
Vbc:     -5.00e+00
Vce:      5.00e+00
BetaDC:  -1.00e+00
Gm:       9.88e-13
Rpi:      9.16e+11
Rx:       1.00e+00
Ro:       2.64e+15
Cbe:      1.36e-11
Cbc:      1.07e-12
Cjs:      0.00e+00
BetaAC:   9.05e-01
Cbx:      6.58e-13
Ft:       4.83e-03



Date: Fri Nov 28 11:13:38 2014
Total elapsed time: 0.216 seconds.

tnom = 27
temp = 27
method = trap
totiter = 6
traniter = 0
tranpoints = 0
accept = 0
rejected = 0
matrix size = 8
fillins = 0
solver = Normal
Matrix Compiler1: 424 bytes object code size
Matrix Compiler2: 588 bytes object code size

