Circuit: * Z:\home\spock\HiG\EE413A-mätteknik\lab\lab-01\sim\5_amplifier-bias.asc

Direct Newton iteration for .op point succeeded.
Semiconductor Device Operating Points:
                        --- Bipolar Transistors ---
Name:       q1
Model:    bc547c
Ib:       3.52e-05
Ic:       1.42e-02
Vbe:      6.97e-01
Vbc:      4.67e-01
Vce:      2.30e-01
BetaDC:   4.03e+02
Gm:       4.97e-01
Rpi:      7.54e+02
Rx:       1.00e+00
Ro:       2.35e+03
Cbe:      3.11e-10
Cbc:      1.35e-11
Cjs:      0.00e+00
BetaAC:   3.74e+02
Cbx:      8.32e-12
Ft:       2.38e+08



Date: Fri Nov 28 21:52:53 2014
Total elapsed time: 0.146 seconds.

tnom = 27
temp = 27
method = trap
totiter = 8
traniter = 0
tranpoints = 0
accept = 0
rejected = 0
matrix size = 9
fillins = 0
solver = Normal
Matrix Compiler1: 528 bytes object code size
Matrix Compiler2: 715 bytes object code size

