Freq.	V(vout)
Step Information: Rc=100  (Run: 1/18)
2.00000000000000e+001	(-1.19207507256346e+001dB,-1.77007196360432e+002°)
2.01391110011344e+001	(-1.19205926222442e+001dB,-1.77027833766966e+002°)
2.02791895958006e+001	(-1.19204366898753e+001dB,-1.77048329350938e+002°)
2.04202425141439e+001	(-1.19202828987924e+001dB,-1.77068684076880e+002°)
2.05622765331213e+001	(-1.19201312196654e+001dB,-1.77088898903235e+002°)
2.07052984768276e+001	(-1.19199816235627e+001dB,-1.77108974782096e+002°)
2.08493152168224e+001	(-1.19198340819497e+001dB,-1.77128912658963e+002°)
2.09943336724614e+001	(-1.19196885666782e+001dB,-1.77148713473510e+002°)
2.11403608112276e+001	(-1.19195450499852e+001dB,-1.77168378158944e+002°)
2.12874036490672e+001	(-1.19194035044860e+001dB,-1.77187907642345e+002°)
2.14354692507259e+001	(-1.19192639031687e+001dB,-1.77207302844746e+002°)
2.15845647300886e+001	(-1.19191262193913e+001dB,-1.77226564680891e+002°)
2.17346972505212e+001	(-1.19189904268736e+001dB,-1.77245694059751e+002°)
2.18858740252148e+001	(-1.19188564996946e+001dB,-1.77264691884042e+002°)
2.20381023175322e+001	(-1.19187244122874e+001dB,-1.77283559050551e+002°)
2.21913894413569e+001	(-1.19185941394343e+001dB,-1.77302296450083e+002°)
2.23457427614444e+001	(-1.19184656562597e+001dB,-1.77320904967728e+002°)
2.25011696937762e+001	(-1.19183389382297e+001dB,-1.77339385482445e+002°)
2.26576777059160e+001	(-1.19182139611442e+001dB,-1.77357738867509e+002°)
2.28152743173685e+001	(-1.19180907011350e+001dB,-1.77375965990198e+002°)
2.29739670999407e+001	(-1.19179691346576e+001dB,-1.77394067712273e+002°)
2.31337636781058e+001	(-1.19178492384901e+001dB,-1.77412044889616e+002°)
2.32946717293691e+001	(-1.19177309897283e+001dB,-1.77429898372407e+002°)
2.34566989846376e+001	(-1.19176143657798e+001dB,-1.77447629005206e+002°)
2.36198532285906e+001	(-1.19174993443623e+001dB,-1.77465237626859e+002°)
2.37841423000545e+001	(-1.19173859034964e+001dB,-1.77482725070715e+002°)
2.39495740923786e+001	(-1.19172740215029e+001dB,-1.77500092164529e+002°)
2.41161565538152e+001	(-1.19171636770000e+001dB,-1.77517339730590e+002°)
2.42838976879010e+001	(-1.19170548488985e+001dB,-1.77534468585424e+002°)
2.44528055538414e+001	(-1.19169475163952e+001dB,-1.77551479540501e+002°)
2.46228882668984e+001	(-1.19168416589731e+001dB,-1.77568373401645e+002°)
2.47941539987798e+001	(-1.19167372563957e+001dB,-1.77585150969162e+002°)
2.49666109780323e+001	(-1.19166342887023e+001dB,-1.77601813038246e+002°)
2.51402674904366e+001	(-1.19165327362055e+001dB,-1.77618360398687e+002°)
2.53151318794057e+001	(-1.19164325794875e+001dB,-1.77634793834911e+002°)
2.54912125463853e+001	(-1.19163337993948e+001dB,-1.77651114126221e+002°)
2.56685179512581e+001	(-1.19162363770378e+001dB,-1.77667322046511e+002°)
2.58470566127499e+001	(-1.19161402937836e+001dB,-1.77683418364665e+002°)
2.60268371088387e+001	(-1.19160455312541e+001dB,-1.77699403844392e+002°)
2.62078680771673e+001	(-1.19159520713252e+001dB,-1.77715279244035e+002°)
2.63901582154580e+001	(-1.19158598961174e+001dB,-1.77731045317148e+002°)
2.65737162819303e+001	(-1.19157689879972e+001dB,-1.77746702812109e+002°)
2.67585510957223e+001	(-1.19156793295731e+001dB,-1.77762252472231e+002°)
2.69446715373139e+001	(-1.19155909036911e+001dB,-1.77777695035844e+002°)
2.71320865489535e+001	(-1.19155036934321e+001dB,-1.77793031236287e+002°)
2.73208051350880e+001	(-1.19154176821075e+001dB,-1.77808261802098e+002°)
2.75108363627950e+001	(-1.19153328532589e+001dB,-1.77823387456677e+002°)
2.77021893622186e+001	(-1.19152491906518e+001dB,-1.77838408918840e+002°)
2.78948733270082e+001	(-1.19151666782748e+001dB,-1.77853326902374e+002°)
2.80888975147600e+001	(-1.19150853003354e+001dB,-1.77868142116190e+002°)
2.82842712474620e+001	(-1.19150050412572e+001dB,-1.77882855264644e+002°)
2.84810039119415e+001	(-1.19149258856772e+001dB,-1.77897467047175e+002°)
2.86791049603166e+001	(-1.19148478184434e+001dB,-1.77911978158560e+002°)
2.88785839104500e+001	(-1.19147708246104e+001dB,-1.77926389288840e+002°)
2.90794503464063e+001	(-1.19146948894377e+001dB,-1.77940701123532e+002°)
2.92817139189126e+001	(-1.19146199983874e+001dB,-1.77954914343348e+002°)
2.94853843458221e+001	(-1.19145461371201e+001dB,-1.77969029624511e+002°)
2.96904714125811e+001	(-1.19144732914925e+001dB,-1.77983047638719e+002°)
2.98969849726989e+001	(-1.19144014475564e+001dB,-1.77996969052939e+002°)
3.01049349482215e+001	(-1.19143305915533e+001dB,-1.78010794529853e+002°)
3.03143313302081e+001	(-1.19142607099141e+001dB,-1.78024524727453e+002°)
3.05251841792113e+001	(-1.19141917892549e+001dB,-1.78038160299574e+002°)
3.07375036257604e+001	(-1.19141238163759e+001dB,-1.78051701895299e+002°)
3.09512998708479e+001	(-1.19140567782591e+001dB,-1.78065150159393e+002°)
3.11665831864201e+001	(-1.19139906620619e+001dB,-1.78078505732500e+002°)
3.13833639158702e+001	(-1.19139254551209e+001dB,-1.78091769250713e+002°)
3.16016524745352e+001	(-1.19138611449448e+001dB,-1.78104941345776e+002°)
3.18214593501969e+001	(-1.19137977192131e+001dB,-1.78118022645283e+002°)
3.20427951035850e+001	(-1.19137351657753e+001dB,-1.78131013772543e+002°)
3.22656703688852e+001	(-1.19136734726476e+001dB,-1.78143915346524e+002°)
3.24900958542496e+001	(-1.19136126280095e+001dB,-1.78156727982199e+002°)
3.27160823423114e+001	(-1.19135526202025e+001dB,-1.78169452290175e+002°)
3.29436406907031e+001	(-1.19134934377294e+001dB,-1.78182088877035e+002°)
3.31727818325778e+001	(-1.19134350692493e+001dB,-1.78194638345275e+002°)
3.34035167771350e+001	(-1.19133775035770e+001dB,-1.78207101293192e+002°)
3.36358566101488e+001	(-1.19133207296819e+001dB,-1.78219478315001e+002°)
3.38698124945013e+001	(-1.19132647366824e+001dB,-1.78231770001083e+002°)
3.41053956707185e+001	(-1.19132095138493e+001dB,-1.78243976937535e+002°)
3.43426174575103e+001	(-1.19131550505965e+001dB,-1.78256099706773e+002°)
3.45814892523148e+001	(-1.19131013364876e+001dB,-1.78268138886935e+002°)
3.48220225318452e+001	(-1.19130483612268e+001dB,-1.78280095052481e+002°)
3.50642288526416e+001	(-1.19129961146587e+001dB,-1.78291968773839e+002°)
3.53081198516264e+001	(-1.19129445867695e+001dB,-1.78303760617643e+002°)
3.55537072466630e+001	(-1.19128937676812e+001dB,-1.78315471146532e+002°)
3.58010028371191e+001	(-1.19128436476524e+001dB,-1.78327100919502e+002°)
3.60500185044334e+001	(-1.19127942170744e+001dB,-1.78338650491561e+002°)
3.63007662126867e+001	(-1.19127454664713e+001dB,-1.78350120414134e+002°)
3.65532580091762e+001	(-1.19126973864961e+001dB,-1.78361511234667e+002°)
3.68075060249952e+001	(-1.19126499679316e+001dB,-1.78372823497087e+002°)
3.70635224756151e+001	(-1.19126032016848e+001dB,-1.78384057741515e+002°)
3.73213196614725e+001	(-1.19125570787900e+001dB,-1.78395214504392e+002°)
3.75809099685607e+001	(-1.19125115904032e+001dB,-1.78406294318477e+002°)
3.78423058690241e+001	(-1.19124667278024e+001dB,-1.78417297712961e+002°)
3.81055199217578e+001	(-1.19124224823844e+001dB,-1.78428225213495e+002°)
3.83705647730108e+001	(-1.19123788456645e+001dB,-1.78439077341955e+002°)
3.86374531569941e+001	(-1.19123358092751e+001dB,-1.78449854616796e+002°)
3.89061978964917e+001	(-1.19122933649634e+001dB,-1.78460557552891e+002°)
3.91768119034774e+001	(-1.19122515045885e+001dB,-1.78471186661670e+002°)
3.94493081797347e+001	(-1.19122102201228e+001dB,-1.78481742450917e+002°)
3.97236998174817e+001	(-1.19121695036485e+001dB,-1.78492225425133e+002°)
4.00000000000003e+001	(-1.19121293473558e+001dB,-1.78502636085289e+002°)
4.02782220022691e+001	(-1.19120897435438e+001dB,-1.78512974928951e+002°)
4.05583791916015e+001	(-1.19120506846155e+001dB,-1.78523242450240e+002°)
4.08404850282880e+001	(-1.19120121630789e+001dB,-1.78533439139988e+002°)
4.11245530662430e+001	(-1.19119741715449e+001dB,-1.78543565485613e+002°)
4.14105969536554e+001	(-1.19119367027265e+001dB,-1.78553621971203e+002°)
4.16986304336452e+001	(-1.19118997494361e+001dB,-1.78563609077547e+002°)
4.19886673449230e+001	(-1.19118633045846e+001dB,-1.78573527282232e+002°)
4.22807216224556e+001	(-1.19118273611806e+001dB,-1.78583377059505e+002°)
4.25748072981347e+001	(-1.19117919123290e+001dB,-1.78593158880305e+002°)
4.28709385014521e+001	(-1.19117569512288e+001dB,-1.78602873212461e+002°)
4.31691294601774e+001	(-1.19117224711731e+001dB,-1.78612520520618e+002°)
4.34693945010427e+001	(-1.19116884655460e+001dB,-1.78622101266159e+002°)
4.37717480504299e+001	(-1.19116549278241e+001dB,-1.78631615907342e+002°)
4.40762046350648e+001	(-1.19116218515725e+001dB,-1.78641064899268e+002°)
4.43827788827142e+001	(-1.19115892304448e+001dB,-1.78650448694018e+002°)
4.46914855228892e+001	(-1.19115570581818e+001dB,-1.78659767740501e+002°)
4.50023393875528e+001	(-1.19115253286107e+001dB,-1.78669022484531e+002°)
4.53153554118324e+001	(-1.19114940356428e+001dB,-1.78678213368944e+002°)
4.56305486347374e+001	(-1.19114631732741e+001dB,-1.78687340833512e+002°)
4.59479341998818e+001	(-1.19114327355816e+001dB,-1.78696405315044e+002°)
4.62675273562119e+001	(-1.19114027167248e+001dB,-1.78705407247230e+002°)
4.65893434587387e+001	(-1.19113731109439e+001dB,-1.78714347060922e+002°)
4.69133979692756e+001	(-1.19113439125569e+001dB,-1.78723225183934e+002°)
4.72397064571817e+001	(-1.19113151159605e+001dB,-1.78732042041291e+002°)
4.75682846001093e+001	(-1.19112867156280e+001dB,-1.78740798054892e+002°)
4.78991481847576e+001	(-1.19112587061097e+001dB,-1.78749493643923e+002°)
4.82323131076309e+001	(-1.19112310820302e+001dB,-1.78758129224628e+002°)
4.85677953758023e+001	(-1.19112038380870e+001dB,-1.78766705210363e+002°)
4.89056111076832e+001	(-1.19111769690522e+001dB,-1.78775222011786e+002°)
4.92457765337971e+001	(-1.19111504697686e+001dB,-1.78783680036595e+002°)
4.95883079975600e+001	(-1.19111243351502e+001dB,-1.78792079689768e+002°)
4.99332219560650e+001	(-1.19110985601805e+001dB,-1.78800421373499e+002°)
5.02805349808736e+001	(-1.19110731399132e+001dB,-1.78808705487196e+002°)
5.06302637588117e+001	(-1.19110480694680e+001dB,-1.78816932427579e+002°)
5.09824250927710e+001	(-1.19110233440336e+001dB,-1.78825102588557e+002°)
5.13370359025167e+001	(-1.19109989588638e+001dB,-1.78833216361488e+002°)
5.16941132255002e+001	(-1.19109749092782e+001dB,-1.78841274134871e+002°)
5.20536742176779e+001	(-1.19109511906594e+001dB,-1.78849276294710e+002°)
5.24157361543351e+001	(-1.19109277984553e+001dB,-1.78857223224208e+002°)
5.27803164309163e+001	(-1.19109047281748e+001dB,-1.78865115304086e+002°)
5.31474325638610e+001	(-1.19108819753902e+001dB,-1.78872952912301e+002°)
5.35171021914451e+001	(-1.19108595357333e+001dB,-1.78880736424343e+002°)
5.38893430746282e+001	(-1.19108374048956e+001dB,-1.78888466213051e+002°)
5.42641730979075e+001	(-1.19108155786301e+001dB,-1.78896142648774e+002°)
5.46416102701764e+001	(-1.19107940527456e+001dB,-1.78903766099229e+002°)
5.50216727255904e+001	(-1.19107728231094e+001dB,-1.78911336929713e+002°)
5.54043787244376e+001	(-1.19107518856470e+001dB,-1.78918855502874e+002°)
5.57897466540169e+001	(-1.19107312363375e+001dB,-1.78926322179049e+002°)
5.61777950295205e+001	(-1.19107108712170e+001dB,-1.78933737315979e+002°)
5.65685424949245e+001	(-1.19106907863758e+001dB,-1.78941101268947e+002°)
5.69620078238835e+001	(-1.19106709779576e+001dB,-1.78948414390841e+002°)
5.73582099206338e+001	(-1.19106514421592e+001dB,-1.78955677032125e+002°)
5.77571678209005e+001	(-1.19106321752298e+001dB,-1.78962889540869e+002°)
5.81589006928131e+001	(-1.19106131734707e+001dB,-1.78970052262684e+002°)
5.85634278378257e+001	(-1.19105944332327e+001dB,-1.78977165540840e+002°)
5.89707686916448e+001	(-1.19105759509181e+001dB,-1.78984229716327e+002°)
5.93809428251627e+001	(-1.19105577229778e+001dB,-1.78991245127652e+002°)
5.97939699453983e+001	(-1.19105397459120e+001dB,-1.78998212111132e+002°)
6.02098698964434e+001	(-1.19105220162691e+001dB,-1.79005131000691e+002°)
6.06286626604167e+001	(-1.19105045306445e+001dB,-1.79012002127975e+002°)
6.10503683584231e+001	(-1.19104872856808e+001dB,-1.79018825822361e+002°)
6.14750072515213e+001	(-1.19104702780664e+001dB,-1.79025602410936e+002°)
6.19025997416964e+001	(-1.19104535045359e+001dB,-1.79032332218570e+002°)
6.23331663728408e+001	(-1.19104369618677e+001dB,-1.79039015567926e+002°)
6.27667278317409e+001	(-1.19104206468863e+001dB,-1.79045652779343e+002°)
6.32033049490710e+001	(-1.19104045564574e+001dB,-1.79052244171101e+002°)
6.36429187003943e+001	(-1.19103886874924e+001dB,-1.79058790059195e+002°)
6.40855902071706e+001	(-1.19103730369430e+001dB,-1.79065290757468e+002°)
6.45313407377709e+001	(-1.19103576018041e+001dB,-1.79071746577611e+002°)
6.49801917084997e+001	(-1.19103423791117e+001dB,-1.79078157829136e+002°)
6.54321646846233e+001	(-1.19103273659425e+001dB,-1.79084524819520e+002°)
6.58872813814067e+001	(-1.19103125594129e+001dB,-1.79090847854068e+002°)
6.63455636651562e+001	(-1.19102979566801e+001dB,-1.79097127235927e+002°)
6.68070335542704e+001	(-1.19102835549392e+001dB,-1.79103363266238e+002°)
6.72717132202981e+001	(-1.19102693514247e+001dB,-1.79109556244097e+002°)
6.77396249890031e+001	(-1.19102553434086e+001dB,-1.79115706466431e+002°)
6.82107913414375e+001	(-1.19102415282006e+001dB,-1.79121814228238e+002°)
6.86852349150212e+001	(-1.19102279031479e+001dB,-1.79127879822428e+002°)
6.91629785046302e+001	(-1.19102144656334e+001dB,-1.79133903539857e+002°)
6.96440450636909e+001	(-1.19102012130763e+001dB,-1.79139885669479e+002°)
7.01284577052838e+001	(-1.19101881429317e+001dB,-1.79145826498231e+002°)
7.06162397032534e+001	(-1.19101752526889e+001dB,-1.79151726311010e+002°)
7.11074144933266e+001	(-1.19101625398725e+001dB,-1.79157585390794e+002°)
7.16020056742388e+001	(-1.19101500020410e+001dB,-1.79163404018647e+002°)
7.21000370088674e+001	(-1.19101376367858e+001dB,-1.79169182473663e+002°)
7.26015324253739e+001	(-1.19101254417325e+001dB,-1.79174921033019e+002°)
7.31065160183531e+001	(-1.19101134145384e+001dB,-1.79180619971961e+002°)
7.36150120499911e+001	(-1.19101015528935e+001dB,-1.79186279563900e+002°)
7.41270449512307e+001	(-1.19100898545198e+001dB,-1.79191900080312e+002°)
7.46426393229457e+001	(-1.19100783171703e+001dB,-1.79197481790848e+002°)
7.51618199371220e+001	(-1.19100669386290e+001dB,-1.79203024963264e+002°)
7.56846117380488e+001	(-1.19100557167100e+001dB,-1.79208529863488e+002°)
7.62110398435161e+001	(-1.19100446492582e+001dB,-1.79213996755609e+002°)
7.67411295460223e+001	(-1.19100337341476e+001dB,-1.79219425901926e+002°)
7.72749063139888e+001	(-1.19100229692818e+001dB,-1.79224817562909e+002°)
7.78123957929840e+001	(-1.19100123525927e+001dB,-1.79230171997214e+002°)
7.83536238069553e+001	(-1.19100018820416e+001dB,-1.79235489461787e+002°)
7.88986163594699e+001	(-1.19099915556168e+001dB,-1.79240770211692e+002°)
7.94473996349641e+001	(-1.19099813713353e+001dB,-1.79246014500379e+002°)
8.00000000000012e+001	(-1.19099713272400e+001dB,-1.79251222579416e+002°)
8.05564440045387e+001	(-1.19099614214019e+001dB,-1.79256394698705e+002°)
8.11167583832036e+001	(-1.19099516519184e+001dB,-1.79261531106452e+002°)
8.16809700565767e+001	(-1.19099420169131e+001dB,-1.79266632049117e+002°)
8.22491061324866e+001	(-1.19099325145343e+001dB,-1.79271697771444e+002°)
8.28211939073115e+001	(-1.19099231429576e+001dB,-1.79276728516538e+002°)
8.33972608672910e+001	(-1.19099139003820e+001dB,-1.79281724525800e+002°)
8.39773346898467e+001	(-1.19099047850329e+001dB,-1.79286686038983e+002°)
8.45614432449118e+001	(-1.19098957951583e+001dB,-1.79291613294157e+002°)
8.51496145962701e+001	(-1.19098869290317e+001dB,-1.79296506527794e+002°)
8.57418770029048e+001	(-1.19098781849506e+001dB,-1.79301365974727e+002°)
8.63382589203556e+001	(-1.19098695612340e+001dB,-1.79306191868147e+002°)
8.69387890020860e+001	(-1.19098610562264e+001dB,-1.79310984439670e+002°)
8.75434961008606e+001	(-1.19098526682931e+001dB,-1.79315743919279e+002°)
8.81524092701303e+001	(-1.19098443958231e+001dB,-1.79320470535425e+002°)
8.87655577654290e+001	(-1.19098362372273e+001dB,-1.79325164514942e+002°)
8.93829710457790e+001	(-1.19098281909384e+001dB,-1.79329826083106e+002°)
9.00046787751062e+001	(-1.19098202554101e+001dB,-1.79334455463654e+002°)
9.06307108236654e+001	(-1.19098124291190e+001dB,-1.79339052878773e+002°)
9.12610972694754e+001	(-1.19098047105602e+001dB,-1.79343618549120e+002°)
9.18958683997643e+001	(-1.19097970982523e+001dB,-1.79348152693833e+002°)
9.25350547124245e+001	(-1.19097895907321e+001dB,-1.79352655530553e+002°)
9.31786869174780e+001	(-1.19097821865575e+001dB,-1.79357127275398e+002°)
9.38267959385519e+001	(-1.19097748843059e+001dB,-1.79361568143004e+002°)
9.44794129143640e+001	(-1.19097676825744e+001dB,-1.79365978346559e+002°)
9.51365692002193e+001	(-1.19097605799796e+001dB,-1.79370358097712e+002°)
9.57982963695159e+001	(-1.19097535751570e+001dB,-1.79374707606723e+002°)
9.64646262152625e+001	(-1.19097466667608e+001dB,-1.79379027082356e+002°)
9.71355907516054e+001	(-1.19097398534641e+001dB,-1.79383316731964e+002°)
9.78112222153672e+001	(-1.19097331339571e+001dB,-1.79387576761485e+002°)
9.84915530675950e+001	(-1.19097265069495e+001dB,-1.79391807375381e+002°)
9.91766159951206e+001	(-1.19097199711679e+001dB,-1.79396008776704e+002°)
9.98664439121307e+001	(-1.19097135253571e+001dB,-1.79400181167244e+002°)
1.00561069961748e+002	(-1.19097071682778e+001dB,-1.79404324747227e+002°)
1.01260527517624e+002	(-1.19097008987098e+001dB,-1.79408439715549e+002°)
1.01964850185543e+002	(-1.19096947154473e+001dB,-1.79412526269805e+002°)
1.02674071805034e+002	(-1.19096886173034e+001dB,-1.79416584606164e+002°)
1.03388226451001e+002	(-1.19096826031057e+001dB,-1.79420614919427e+002°)
1.04107348435357e+002	(-1.19096766716993e+001dB,-1.79424617403107e+002°)
1.04831472308671e+002	(-1.19096708219445e+001dB,-1.79428592249347e+002°)
1.05560632861833e+002	(-1.19096650527170e+001dB,-1.79432539648970e+002°)
1.06294865127723e+002	(-1.19096593629091e+001dB,-1.79436459791494e+002°)
1.07034204382891e+002	(-1.19096537514269e+001dB,-1.79440352865125e+002°)
1.07778686149257e+002	(-1.19096482171927e+001dB,-1.79444219056784e+002°)
1.08528346195816e+002	(-1.19096427591426e+001dB,-1.79448058552044e+002°)
1.09283220540354e+002	(-1.19096373762290e+001dB,-1.79451871535285e+002°)
1.10043345451182e+002	(-1.19096320674163e+001dB,-1.79455658189576e+002°)
1.10808757448876e+002	(-1.19096268316855e+001dB,-1.79459418696697e+002°)
1.11579493308035e+002	(-1.19096216680307e+001dB,-1.79463153237208e+002°)
1.12355590059042e+002	(-1.19096165754596e+001dB,-1.79466861990412e+002°)
1.13137084989850e+002	(-1.19096115529930e+001dB,-1.79470545134404e+002°)
1.13924015647768e+002	(-1.19096065996666e+001dB,-1.79474202846014e+002°)
1.14716419841268e+002	(-1.19096017145287e+001dB,-1.79477835300846e+002°)
1.15514335641802e+002	(-1.19095968966407e+001dB,-1.79481442673322e+002°)
1.16317801385627e+002	(-1.19095921450764e+001dB,-1.79485025136661e+002°)
1.17126855675652e+002	(-1.19095874589236e+001dB,-1.79488582862870e+002°)
1.17941537383290e+002	(-1.19095828372814e+001dB,-1.79492116022769e+002°)
1.18761885650326e+002	(-1.19095782792618e+001dB,-1.79495624786027e+002°)
1.19587939890797e+002	(-1.19095737839891e+001dB,-1.79499109321114e+002°)
1.20419739792888e+002	(-1.19095693505996e+001dB,-1.79502569795332e+002°)
1.21257325320834e+002	(-1.19095649782414e+001dB,-1.79506006374886e+002°)
1.22100736716847e+002	(-1.19095606660745e+001dB,-1.79509419224747e+002°)
1.22950014503043e+002	(-1.19095564132702e+001dB,-1.79512808508807e+002°)
1.23805199483394e+002	(-1.19095522190115e+001dB,-1.79516174389835e+002°)
1.24666332745682e+002	(-1.19095480824926e+001dB,-1.79519517029456e+002°)
1.25533455663483e+002	(-1.19095440029184e+001dB,-1.79522836588150e+002°)
1.26406609898143e+002	(-1.19095399795051e+001dB,-1.79526133225356e+002°)
1.27285837400790e+002	(-1.19095360114798e+001dB,-1.79529407099350e+002°)
1.28171180414342e+002	(-1.19095320980796e+001dB,-1.79532658367378e+002°)
